T6D94 000:065.259   SEGGER J-Link V8.88 Log File
T6D94 000:065.441   DLL Compiled: Nov 19 2025 12:57:46
T6D94 000:065.460   Logging started @ 2025-11-23 04:04
T6D94 000:065.474   Process: C:\Keil_v5\UV4\UV4.exe
T6D94 000:065.492 - 65.489ms 
T6D94 000:065.512 JLINK_SetWarnOutHandler(...)
T6D94 000:065.527 - 0.016ms 
T6D94 000:065.543 JLINK_OpenEx(...)
T6D94 000:070.144   Firmware: J-Link V9 compiled May  7 2021 16:26:12
T6D94 000:070.686   Firmware: J-Link V9 compiled May  7 2021 16:26:12
T6D94 000:070.870   Decompressing FW timestamp took 127 us
T6D94 000:076.687   Hardware: V9.70
T6D94 000:076.728   S/N: 602712622
T6D94 000:076.754   OEM: SEGGER
T6D94 000:076.780   Feature(s): GDB, RDI, FlashBP, FlashDL, JFlash
T6D94 000:077.437   Bootloader: (FW returned invalid version)
T6D94 000:078.157   TELNET listener socket opened on port 19021
T6D94 000:078.291   WEBSRV WEBSRV_Init(): Starting webserver thread(s)
T6D94 000:078.475   WEBSRV Webserver running on local port 19080
T6D94 000:078.719   Looking for J-Link GUI Server exe at: C:\Keil_v5\ARM\Segger\JLinkGUIServer.exe
T6D94 000:078.784   Looking for J-Link GUI Server exe at: C:\Program Files\SEGGER\JLink_V888\JLinkGUIServer.exe
T6D94 000:078.829   Forking J-Link GUI Server: C:\Program Files\SEGGER\JLink_V888\JLinkGUIServer.exe
T6D94 000:083.563   J-Link GUI Server info: "J-Link GUI server V8.88 "
T6D94 000:083.970 - 18.419ms returns "O.K."
T6D94 000:084.010 JLINK_SetErrorOutHandler(...)
T6D94 000:084.031 - 0.020ms 
T6D94 000:084.070 JLINK_ExecCommand("ProjectFile = "D:\fork\motor_duck\stm32g431\MDK-ARM\JLinkSettings.ini"", ...). 
T6D94 000:100.545   Ref file found at: C:\Keil_v5\ARM\Segger\JLinkDevices.ref
T6D94 000:100.690   REF file references invalid XML file: C:\Program Files\SEGGER\JLink_V888\JLinkDevices.xml
T6D94 000:102.106 - 18.033ms returns 0x00
T6D94 000:102.864 JLINK_ExecCommand("Device = STM32G431CBUx", ...). 
T6D94 000:103.337   Flash bank @ 0x08000000: SFL: Parsing sectorization info from ELF file
T6D94 000:103.373     FlashDevice.SectorInfo[0]: .SectorSize = 0x00000800, .SectorStartAddr = 0x00000000
T6D94 000:103.402   FlashBank @0x08000000: Sectorization info from SFL ELF file ignored because sectorization override from DLL / XML file is active.
T6D94 000:103.889   Device "STM32G431CB" selected.
T6D94 000:104.372 - 1.476ms returns 0x00
T6D94 000:104.397 JLINK_ExecCommand("DisableConnectionTimeout", ...). 
T6D94 000:104.419   ERROR: Unknown command
T6D94 000:104.441 - 0.027ms returns 0x01
T6D94 000:104.458 JLINK_GetHardwareVersion()
T6D94 000:104.473 - 0.015ms returns 97000
T6D94 000:104.489 JLINK_GetDLLVersion()
T6D94 000:104.504 - 0.014ms returns 88800
T6D94 000:104.521 JLINK_GetOEMString(...)
T6D94 000:104.538 JLINK_GetFirmwareString(...)
T6D94 000:104.553 - 0.014ms 
T6D94 000:105.812 JLINK_GetDLLVersion()
T6D94 000:105.837 - 0.024ms returns 88800
T6D94 000:105.853 JLINK_GetCompileDateTime()
T6D94 000:105.868 - 0.014ms 
T6D94 000:106.126 JLINK_GetFirmwareString(...)
T6D94 000:106.145 - 0.019ms 
T6D94 000:106.451 JLINK_GetHardwareVersion()
T6D94 000:106.478 - 0.026ms returns 97000
T6D94 000:107.162 JLINK_GetSN()
T6D94 000:107.206 - 0.042ms returns 602712622
T6D94 000:113.672 JLINK_GetOEMString(...)
T6D94 000:119.023 JLINK_TIF_Select(JLINKARM_TIF_SWD)
T6D94 000:119.555 - 0.535ms returns 0x00
T6D94 000:119.583 JLINK_HasError()
T6D94 000:119.605 JLINK_SetSpeed(5000)
T6D94 000:119.688 - 0.084ms 
T6D94 000:119.710 JLINK_GetId()
T6D94 000:122.470   InitTarget() start
T6D94 000:122.509    J-Link Script File: Executing InitTarget()
T6D94 000:125.871   SWD selected. Executing JTAG -> SWD switching sequence.
T6D94 000:130.530   DAP initialized successfully.
T6D94 000:138.008   InitTarget() end - Took 13.0ms
T6D94 000:141.224   Found SW-DP with ID 0x2BA01477
T6D94 000:145.218   DPIDR: 0x2BA01477
T6D94 000:147.527   CoreSight SoC-400 or earlier
T6D94 000:150.001   Scanning AP map to find all available APs
T6D94 000:152.955   AP[1]: Stopped AP scan as end of AP map has been reached
T6D94 000:155.336   AP[0]: AHB-AP (IDR: 0x24770011, ADDR: 0x00000000)
T6D94 000:159.690   Iterating through AP map to find AHB-AP to use
T6D94 000:163.169   AP[0]: Core found
T6D94 000:165.685   AP[0]: AHB-AP ROM base: 0xE00FF000
T6D94 000:168.532   CPUID register: 0x410FC241. Implementer code: 0x41 (ARM)
T6D94 000:170.991   Found Cortex-M4 r0p1, Little endian.
T6D94 000:171.319   -- Max. mem block: 0x00010C40
T6D94 000:171.737   CPU_ReadMem(4 bytes @ 0xE000EDF0)
T6D94 000:171.989   CPU_ReadMem(4 bytes @ 0xE0002000)
T6D94 000:175.150   FPUnit: 6 code (BP) slots and 2 literal slots
T6D94 000:175.199   CPU_ReadMem(4 bytes @ 0xE000EDFC)
T6D94 000:175.470   CPU_WriteMem(4 bytes @ 0xE000EDFC)
T6D94 000:175.719   CPU_ReadMem(4 bytes @ 0xE0001000)
T6D94 000:175.964   CPU_WriteMem(4 bytes @ 0xE0001000)
T6D94 000:176.267   CPU_ReadMem(4 bytes @ 0xE000ED88)
T6D94 000:176.517   CPU_WriteMem(4 bytes @ 0xE000ED88)
T6D94 000:176.763   CPU_ReadMem(4 bytes @ 0xE000ED88)
T6D94 000:177.003   CPU_WriteMem(4 bytes @ 0xE000ED88)
T6D94 000:179.834   CoreSight components:
T6D94 000:182.282   ROMTbl[0] @ E00FF000
T6D94 000:182.314   CPU_ReadMem(64 bytes @ 0xE00FF000)
T6D94 000:182.906   CPU_ReadMem(32 bytes @ 0xE000EFE0)
T6D94 000:185.660   [0][0]: E000E000 CID B105E00D PID 000BB00C SCS-M7
T6D94 000:185.693   CPU_ReadMem(32 bytes @ 0xE0001FE0)
T6D94 000:188.407   [0][1]: E0001000 CID B105E00D PID 003BB002 DWT
T6D94 000:188.442   CPU_ReadMem(32 bytes @ 0xE0002FE0)
T6D94 000:191.896   [0][2]: E0002000 CID B105E00D PID 002BB003 FPB
T6D94 000:191.944   CPU_ReadMem(32 bytes @ 0xE0000FE0)
T6D94 000:194.938   [0][3]: E0000000 CID B105E00D PID 003BB001 ITM
T6D94 000:194.977   CPU_ReadMem(32 bytes @ 0xE0040FE0)
T6D94 000:197.690   [0][4]: E0040000 CID B105900D PID 000BB9A1 TPIU
T6D94 000:197.723   CPU_ReadMem(32 bytes @ 0xE0041FE0)
T6D94 000:200.376   [0][5]: E0041000 CID B105900D PID 000BB925 ETM
T6D94 000:200.586 - 80.875ms returns 0x2BA01477
T6D94 000:200.613 JLINK_GetDLLVersion()
T6D94 000:200.629 - 0.015ms returns 88800
T6D94 000:200.647 JLINK_CORE_GetFound()
T6D94 000:200.663 - 0.015ms returns 0xE0000FF
T6D94 000:200.681 JLINK_GetDebugInfo(0x100 = JLINKARM_ROM_TABLE_ADDR_INDEX)
T6D94 000:200.697   Value=0xE00FF000
T6D94 000:200.719 - 0.037ms returns 0
T6D94 000:203.106 JLINK_ReadMem(0xE00FF000, 0x20 Bytes, ...)
T6D94 000:203.145   CPU_ReadMem(32 bytes @ 0xE00FF000)
T6D94 000:203.549   Data:  03 F0 F0 FF 03 20 F0 FF 03 30 F0 FF 03 10 F0 FF ...
T6D94 000:203.579 - 0.472ms returns 0
T6D94 000:203.597 JLINK_ReadMem(0xE000EFF0, 0x10 Bytes, ...)
T6D94 000:203.616   CPU_ReadMem(16 bytes @ 0xE000EFF0)
T6D94 000:203.902   Data:  0D 00 00 00 E0 00 00 00 05 00 00 00 B1 00 00 00
T6D94 000:203.930 - 0.332ms returns 0
T6D94 000:203.948 JLINK_ReadMem(0xE000EFD0, 0x20 Bytes, ...)
T6D94 000:203.967   CPU_ReadMem(32 bytes @ 0xE000EFD0)
T6D94 000:204.313   Data:  04 00 00 00 00 00 00 00 00 00 00 00 00 00 00 00 ...
T6D94 000:204.340 - 0.391ms returns 0
T6D94 000:204.358 JLINK_ReadMem(0xE0001FF0, 0x10 Bytes, ...)
T6D94 000:204.376   CPU_ReadMem(16 bytes @ 0xE0001FF0)
T6D94 000:204.698   Data:  0D 00 00 00 E0 00 00 00 05 00 00 00 B1 00 00 00
T6D94 000:204.723 - 0.365ms returns 0
T6D94 000:204.740 JLINK_ReadMem(0xE0001FD0, 0x20 Bytes, ...)
T6D94 000:204.757   CPU_ReadMem(32 bytes @ 0xE0001FD0)
T6D94 000:205.114   Data:  04 00 00 00 00 00 00 00 00 00 00 00 00 00 00 00 ...
T6D94 000:205.139 - 0.399ms returns 0
T6D94 000:205.157 JLINK_ReadMem(0xE0002FF0, 0x10 Bytes, ...)
T6D94 000:205.174   CPU_ReadMem(16 bytes @ 0xE0002FF0)
T6D94 000:205.479   Data:  0D 00 00 00 E0 00 00 00 05 00 00 00 B1 00 00 00
T6D94 000:205.506 - 0.349ms returns 0
T6D94 000:205.523 JLINK_ReadMem(0xE0002FD0, 0x20 Bytes, ...)
T6D94 000:205.541   CPU_ReadMem(32 bytes @ 0xE0002FD0)
T6D94 000:205.896   Data:  04 00 00 00 00 00 00 00 00 00 00 00 00 00 00 00 ...
T6D94 000:205.922 - 0.398ms returns 0
T6D94 000:205.939 JLINK_ReadMem(0xE0000FF0, 0x10 Bytes, ...)
T6D94 000:205.956   CPU_ReadMem(16 bytes @ 0xE0000FF0)
T6D94 000:206.341   Data:  0D 00 00 00 E0 00 00 00 05 00 00 00 B1 00 00 00
T6D94 000:206.381 - 0.442ms returns 0
T6D94 000:206.401 JLINK_ReadMem(0xE0000FD0, 0x20 Bytes, ...)
T6D94 000:206.419   CPU_ReadMem(32 bytes @ 0xE0000FD0)
T6D94 000:206.837   Data:  04 00 00 00 00 00 00 00 00 00 00 00 00 00 00 00 ...
T6D94 000:206.873 - 0.471ms returns 0
T6D94 000:206.893 JLINK_ReadMem(0xE0040FF0, 0x10 Bytes, ...)
T6D94 000:206.915   CPU_ReadMem(16 bytes @ 0xE0040FF0)
T6D94 000:207.392   Data:  0D 00 00 00 90 00 00 00 05 00 00 00 B1 00 00 00
T6D94 000:207.430 - 0.537ms returns 0
T6D94 000:207.450 JLINK_ReadMem(0xE0040FD0, 0x20 Bytes, ...)
T6D94 000:207.472   CPU_ReadMem(32 bytes @ 0xE0040FD0)
T6D94 000:207.888   Data:  04 00 00 00 00 00 00 00 00 00 00 00 00 00 00 00 ...
T6D94 000:207.915 - 0.465ms returns 0
T6D94 000:207.934 JLINK_ReadMem(0xE0041FF0, 0x10 Bytes, ...)
T6D94 000:207.953   CPU_ReadMem(16 bytes @ 0xE0041FF0)
T6D94 000:208.276   Data:  0D 00 00 00 90 00 00 00 05 00 00 00 B1 00 00 00
T6D94 000:208.302 - 0.368ms returns 0
T6D94 000:208.319 JLINK_ReadMem(0xE0041FD0, 0x20 Bytes, ...)
T6D94 000:208.337   CPU_ReadMem(32 bytes @ 0xE0041FD0)
T6D94 000:208.686   Data:  04 00 00 00 00 00 00 00 00 00 00 00 00 00 00 00 ...
T6D94 000:208.711 - 0.391ms returns 0
T6D94 000:208.729 JLINK_ReadMemU32(0xE000EF40, 0x1 Items)
T6D94 000:208.746   CPU_ReadMem(4 bytes @ 0xE000EF40)
T6D94 000:209.040   Data:  21 00 11 10
T6D94 000:209.071 - 0.341ms returns 1 (0x1)
T6D94 000:209.088 JLINK_ReadMemU32(0xE000EF44, 0x1 Items)
T6D94 000:209.105   CPU_ReadMem(4 bytes @ 0xE000EF44)
T6D94 000:209.345   Data:  11 00 00 11
T6D94 000:209.372 - 0.283ms returns 1 (0x1)
T6D94 000:209.389 JLINK_ReadMemU32(0xE000ED00, 0x1 Items)
T6D94 000:209.407   CPU_ReadMem(4 bytes @ 0xE000ED00)
T6D94 000:209.644   Data:  41 C2 0F 41
T6D94 000:209.670   Debug reg: CPUID
T6D94 000:209.692 - 0.302ms returns 1 (0x1)
T6D94 000:209.710 JLINK_HasError()
T6D94 000:209.727 JLINK_SetResetType(JLINKARM_CM3_RESET_TYPE_NORMAL)
T6D94 000:209.742 - 0.015ms returns JLINKARM_CM3_RESET_TYPE_NORMAL
T6D94 000:209.758 JLINK_Reset()
T6D94 000:209.776   JLINK_GetResetTypeDesc
T6D94 000:209.792   - 0.015ms 
T6D94 000:212.519   Reset type: NORMAL (https://kb.segger.com/J-Link_Reset_Strategies)
T6D94 000:212.546   CPU is running
T6D94 000:212.570   CPU_WriteMem(4 bytes @ 0xE000EDF0)
T6D94 000:212.815   CPU is running
T6D94 000:212.843   CPU_WriteMem(4 bytes @ 0xE000EDFC)
T6D94 000:215.481   Reset: Halt core after reset via DEMCR.VC_CORERESET.
T6D94 000:218.245   Reset: Reset device via AIRCR.SYSRESETREQ.
T6D94 000:218.277   CPU is running
T6D94 000:218.301   CPU_WriteMem(4 bytes @ 0xE000ED0C)
T6D94 000:271.665   CPU_ReadMem(4 bytes @ 0xE000EDF0)
T6D94 000:271.967   CPU_ReadMem(4 bytes @ 0xE000EDF0)
T6D94 000:274.417   CPU_WriteMem(4 bytes @ 0xE000EDFC)
T6D94 000:280.056   CPU_ReadMem(4 bytes @ 0xE000EDF0)
T6D94 000:282.108   CPU_WriteMem(4 bytes @ 0xE0002000)
T6D94 000:282.416   CPU_ReadMem(4 bytes @ 0xE000EDFC)
T6D94 000:282.653   CPU_ReadMem(4 bytes @ 0xE0001000)
T6D94 000:282.896 - 73.137ms 
T6D94 000:282.929 JLINK_Halt()
T6D94 000:282.944 - 0.015ms returns 0x00
T6D94 000:282.963 JLINK_IsHalted()
T6D94 000:282.979 - 0.015ms returns TRUE
T6D94 000:282.997 JLINK_ReadMemU32(0xE000EDF0, 0x1 Items)
T6D94 000:283.018   CPU_ReadMem(4 bytes @ 0xE000EDF0)
T6D94 000:283.270   Data:  03 00 03 00
T6D94 000:283.301   Debug reg: DHCSR
T6D94 000:283.323 - 0.326ms returns 1 (0x1)
T6D94 000:283.345 JLINK_WriteU32(0xE000EDF0, 0xA05F0003)
T6D94 000:283.361   Debug reg: DHCSR
T6D94 000:283.630   CPU_WriteMem(4 bytes @ 0xE000EDF0)
T6D94 000:283.877 - 0.531ms returns 0 (0x00000000)
T6D94 000:283.903 JLINK_WriteU32(0xE000EDFC, 0x01000000)
T6D94 000:283.918   Debug reg: DEMCR
T6D94 000:283.944   CPU_WriteMem(4 bytes @ 0xE000EDFC)
T6D94 000:284.190 - 0.287ms returns 0 (0x00000000)
T6D94 000:295.538 JLINK_GetHWStatus(...)
T6D94 000:295.719 - 0.181ms returns 0
T6D94 000:304.388 JLINK_GetNumBPUnits(Type = 0xFFFFFF00)
T6D94 000:304.421 - 0.033ms returns 0x06
T6D94 000:304.437 JLINK_GetNumBPUnits(Type = 0xF0)
T6D94 000:304.455 - 0.018ms returns 0x2000
T6D94 000:304.474 JLINK_GetNumWPUnits()
T6D94 000:304.489 - 0.014ms returns 4
T6D94 000:312.679 JLINK_GetSpeed()
T6D94 000:312.714 - 0.034ms returns 4000
T6D94 000:317.604 JLINK_ReadMemU32(0xE000E004, 0x1 Items)
T6D94 000:317.641   CPU_ReadMem(4 bytes @ 0xE000E004)
T6D94 000:317.912   Data:  03 00 00 00
T6D94 000:317.938 - 0.334ms returns 1 (0x1)
T6D94 000:317.956 JLINK_ReadMemU32(0xE000E004, 0x1 Items)
T6D94 000:317.974   CPU_ReadMem(4 bytes @ 0xE000E004)
T6D94 000:318.266   Data:  03 00 00 00
T6D94 000:318.293 - 0.337ms returns 1 (0x1)
T6D94 000:318.311 JLINK_WriteMem(0xE0001000, 0x1C Bytes, ...)
T6D94 000:318.327   Data:  01 00 00 00 00 00 00 00 00 00 00 00 00 00 00 00 ...
T6D94 000:318.354   CPU_WriteMem(28 bytes @ 0xE0001000)
T6D94 000:318.691 - 0.379ms returns 0x1C
T6D94 000:318.712 JLINK_ReadMem(0xE0001000, 0x1C Bytes, ...)
T6D94 000:318.730   CPU_ReadMem(28 bytes @ 0xE0001000)
T6D94 000:319.131   Data:  01 00 00 40 00 00 00 00 00 00 00 00 00 00 00 00 ...
T6D94 000:319.156 - 0.444ms returns 0
T6D94 000:319.176 JLINK_Halt()
T6D94 000:319.191 - 0.015ms returns 0x00
T6D94 000:319.206 JLINK_IsHalted()
T6D94 000:319.222 - 0.015ms returns TRUE
T6D94 000:323.119 JLINK_WriteMem(0x20000000, 0x1D4 Bytes, ...)
T6D94 000:323.146   Data:  00 BE 0A E0 0D 78 2D 06 68 40 08 24 40 00 00 D3 ...
T6D94 000:323.461   CPU_WriteMem(468 bytes @ 0x20000000)
T6D94 000:325.357 - 2.237ms returns 0x1D4
T6D94 000:325.427 JLINK_HasError()
T6D94 000:325.447 JLINK_WriteReg(R0, 0x08000000)
T6D94 000:325.465 - 0.018ms returns 0
T6D94 000:325.481 JLINK_WriteReg(R1, 0x007A1200)
T6D94 000:325.496 - 0.015ms returns 0
T6D94 000:325.512 JLINK_WriteReg(R2, 0x00000001)
T6D94 000:325.527 - 0.015ms returns 0
T6D94 000:325.543 JLINK_WriteReg(R3, 0x00000000)
T6D94 000:325.558 - 0.015ms returns 0
T6D94 000:325.574 JLINK_WriteReg(R4, 0x00000000)
T6D94 000:325.589 - 0.015ms returns 0
T6D94 000:325.604 JLINK_WriteReg(R5, 0x00000000)
T6D94 000:325.619 - 0.015ms returns 0
T6D94 000:325.635 JLINK_WriteReg(R6, 0x00000000)
T6D94 000:325.650 - 0.015ms returns 0
T6D94 000:325.666 JLINK_WriteReg(R7, 0x00000000)
T6D94 000:325.681 - 0.014ms returns 0
T6D94 000:325.703 JLINK_WriteReg(R8, 0x00000000)
T6D94 000:325.718 - 0.021ms returns 0
T6D94 000:325.734 JLINK_WriteReg(R9, 0x200001C0)
T6D94 000:325.749 - 0.015ms returns 0
T6D94 000:325.765 JLINK_WriteReg(R10, 0x00000000)
T6D94 000:325.780 - 0.015ms returns 0
T6D94 000:325.796 JLINK_WriteReg(R11, 0x00000000)
T6D94 000:325.811 - 0.015ms returns 0
T6D94 000:325.827 JLINK_WriteReg(R12, 0x00000000)
T6D94 000:325.841 - 0.014ms returns 0
T6D94 000:325.857 JLINK_WriteReg(R13 (SP), 0x20008000)
T6D94 000:325.873 - 0.016ms returns 0
T6D94 000:325.889 JLINK_WriteReg(R14, 0x20000001)
T6D94 000:325.904 - 0.015ms returns 0
T6D94 000:325.922 JLINK_WriteReg(R15 (PC), 0x20000020)
T6D94 000:325.937 - 0.017ms returns 0
T6D94 000:325.953 JLINK_WriteReg(XPSR, 0x01000000)
T6D94 000:325.968 - 0.015ms returns 0
T6D94 000:325.984 JLINK_WriteReg(MSP, 0x20008000)
T6D94 000:325.999 - 0.015ms returns 0
T6D94 000:326.015 JLINK_WriteReg(PSP, 0x20008000)
T6D94 000:326.030 - 0.015ms returns 0
T6D94 000:326.045 JLINK_WriteReg(CFBP, 0x00000000)
T6D94 000:326.060 - 0.015ms returns 0
T6D94 000:326.077 JLINK_SetBPEx(Addr = 0x20000000, Type = 0xFFFFFFF2)
T6D94 000:326.097   CPU_ReadMem(2 bytes @ 0x20000000)
T6D94 000:326.421 - 0.344ms returns 0x00000001
T6D94 000:326.442 JLINK_Go()
T6D94 000:326.460   CPU_WriteMem(2 bytes @ 0x20000000)
T6D94 000:326.722   CPU_ReadMem(4 bytes @ 0xE0001000)
T6D94 000:326.971   CPU_WriteMem(4 bytes @ 0xE0002008)
T6D94 000:326.997   CPU_WriteMem(4 bytes @ 0xE000200C)
T6D94 000:327.019   CPU_WriteMem(4 bytes @ 0xE0002010)
T6D94 000:327.041   CPU_WriteMem(4 bytes @ 0xE0002014)
T6D94 000:327.063   CPU_WriteMem(4 bytes @ 0xE0002018)
T6D94 000:327.086   CPU_WriteMem(4 bytes @ 0xE000201C)
T6D94 000:328.119   CPU_WriteMem(4 bytes @ 0xE0001004)
T6D94 000:333.228   Memory map 'after startup completion point' is active
T6D94 000:333.304 - 6.861ms 
T6D94 000:333.323 JLINK_IsHalted()
T6D94 000:335.227   CPU_ReadMem(2 bytes @ 0x20000000)
T6D94 000:335.468 - 2.145ms returns TRUE
T6D94 000:335.495 JLINK_ReadReg(R15 (PC))
T6D94 000:335.512 - 0.017ms returns 0x20000000
T6D94 000:335.531 JLINK_ClrBPEx(BPHandle = 0x00000001)
T6D94 000:335.546 - 0.015ms returns 0x00
T6D94 000:335.565 JLINK_ReadReg(R0)
T6D94 000:335.581 - 0.015ms returns 0x00000000
T6D94 000:335.886 JLINK_HasError()
T6D94 000:335.907 JLINK_WriteReg(R0, 0x08000000)
T6D94 000:335.923 - 0.016ms returns 0
T6D94 000:335.939 JLINK_WriteReg(R1, 0x00000800)
T6D94 000:335.954 - 0.015ms returns 0
T6D94 000:335.970 JLINK_WriteReg(R2, 0x000000FF)
T6D94 000:335.985 - 0.014ms returns 0
T6D94 000:336.001 JLINK_WriteReg(R3, 0x00000000)
T6D94 000:336.016 - 0.015ms returns 0
T6D94 000:336.032 JLINK_WriteReg(R4, 0x00000000)
T6D94 000:336.047 - 0.015ms returns 0
T6D94 000:336.062 JLINK_WriteReg(R5, 0x00000000)
T6D94 000:336.077 - 0.015ms returns 0
T6D94 000:336.093 JLINK_WriteReg(R6, 0x00000000)
T6D94 000:336.108 - 0.015ms returns 0
T6D94 000:336.124 JLINK_WriteReg(R7, 0x00000000)
T6D94 000:336.139 - 0.015ms returns 0
T6D94 000:336.155 JLINK_WriteReg(R8, 0x00000000)
T6D94 000:336.170 - 0.015ms returns 0
T6D94 000:336.185 JLINK_WriteReg(R9, 0x200001C0)
T6D94 000:336.200 - 0.014ms returns 0
T6D94 000:336.216 JLINK_WriteReg(R10, 0x00000000)
T6D94 000:336.231 - 0.015ms returns 0
T6D94 000:336.247 JLINK_WriteReg(R11, 0x00000000)
T6D94 000:336.262 - 0.015ms returns 0
T6D94 000:336.278 JLINK_WriteReg(R12, 0x00000000)
T6D94 000:336.293 - 0.015ms returns 0
T6D94 000:336.309 JLINK_WriteReg(R13 (SP), 0x20008000)
T6D94 000:336.324 - 0.015ms returns 0
T6D94 000:336.340 JLINK_WriteReg(R14, 0x20000001)
T6D94 000:336.355 - 0.015ms returns 0
T6D94 000:336.371 JLINK_WriteReg(R15 (PC), 0x2000008C)
T6D94 000:336.386 - 0.015ms returns 0
T6D94 000:336.402 JLINK_WriteReg(XPSR, 0x01000000)
T6D94 000:336.416 - 0.015ms returns 0
T6D94 000:336.432 JLINK_WriteReg(MSP, 0x20008000)
T6D94 000:336.447 - 0.014ms returns 0
T6D94 000:336.463 JLINK_WriteReg(PSP, 0x20008000)
T6D94 000:336.478 - 0.015ms returns 0
T6D94 000:336.494 JLINK_WriteReg(CFBP, 0x00000000)
T6D94 000:336.509 - 0.015ms returns 0
T6D94 000:336.525 JLINK_SetBPEx(Addr = 0x20000000, Type = 0xFFFFFFF2)
T6D94 000:336.540 - 0.015ms returns 0x00000002
T6D94 000:336.556 JLINK_Go()
T6D94 000:336.577   CPU_ReadMem(4 bytes @ 0xE0001000)
T6D94 000:338.546 - 1.989ms 
T6D94 000:338.569 JLINK_IsHalted()
T6D94 000:340.362   CPU_ReadMem(2 bytes @ 0x20000000)
T6D94 000:340.658 - 2.089ms returns TRUE
T6D94 000:340.688 JLINK_ReadReg(R15 (PC))
T6D94 000:340.706 - 0.017ms returns 0x20000000
T6D94 000:340.722 JLINK_ClrBPEx(BPHandle = 0x00000002)
T6D94 000:340.738 - 0.015ms returns 0x00
T6D94 000:340.754 JLINK_ReadReg(R0)
T6D94 000:340.770 - 0.015ms returns 0x00000001
T6D94 000:340.787 JLINK_HasError()
T6D94 000:340.803 JLINK_WriteReg(R0, 0x08000000)
T6D94 000:340.819 - 0.015ms returns 0
T6D94 000:340.835 JLINK_WriteReg(R1, 0x00000800)
T6D94 000:340.850 - 0.015ms returns 0
T6D94 000:340.866 JLINK_WriteReg(R2, 0x000000FF)
T6D94 000:340.881 - 0.015ms returns 0
T6D94 000:340.896 JLINK_WriteReg(R3, 0x00000000)
T6D94 000:340.911 - 0.015ms returns 0
T6D94 000:340.927 JLINK_WriteReg(R4, 0x00000000)
T6D94 000:340.942 - 0.014ms returns 0
T6D94 000:340.958 JLINK_WriteReg(R5, 0x00000000)
T6D94 000:340.973 - 0.015ms returns 0
T6D94 000:340.989 JLINK_WriteReg(R6, 0x00000000)
T6D94 000:341.004 - 0.015ms returns 0
T6D94 000:341.020 JLINK_WriteReg(R7, 0x00000000)
T6D94 000:341.035 - 0.015ms returns 0
T6D94 000:341.051 JLINK_WriteReg(R8, 0x00000000)
T6D94 000:341.066 - 0.015ms returns 0
T6D94 000:341.082 JLINK_WriteReg(R9, 0x200001C0)
T6D94 000:341.097 - 0.015ms returns 0
T6D94 000:341.112 JLINK_WriteReg(R10, 0x00000000)
T6D94 000:341.128 - 0.015ms returns 0
T6D94 000:341.144 JLINK_WriteReg(R11, 0x00000000)
T6D94 000:341.159 - 0.015ms returns 0
T6D94 000:341.175 JLINK_WriteReg(R12, 0x00000000)
T6D94 000:341.193 - 0.017ms returns 0
T6D94 000:341.217 JLINK_WriteReg(R13 (SP), 0x20008000)
T6D94 000:341.232 - 0.015ms returns 0
T6D94 000:341.248 JLINK_WriteReg(R14, 0x20000001)
T6D94 000:341.263 - 0.015ms returns 0
T6D94 000:341.279 JLINK_WriteReg(R15 (PC), 0x200000B0)
T6D94 000:341.294 - 0.015ms returns 0
T6D94 000:341.310 JLINK_WriteReg(XPSR, 0x01000000)
T6D94 000:341.325 - 0.015ms returns 0
T6D94 000:341.341 JLINK_WriteReg(MSP, 0x20008000)
T6D94 000:341.356 - 0.015ms returns 0
T6D94 000:341.372 JLINK_WriteReg(PSP, 0x20008000)
T6D94 000:341.387 - 0.015ms returns 0
T6D94 000:341.402 JLINK_WriteReg(CFBP, 0x00000000)
T6D94 000:341.417 - 0.015ms returns 0
T6D94 000:341.434 JLINK_SetBPEx(Addr = 0x20000000, Type = 0xFFFFFFF2)
T6D94 000:341.449 - 0.015ms returns 0x00000003
T6D94 000:341.465 JLINK_Go()
T6D94 000:341.488   CPU_ReadMem(4 bytes @ 0xE0001000)
T6D94 000:343.494 - 2.027ms 
T6D94 000:343.523 JLINK_IsHalted()
T6D94 000:343.808 - 0.284ms returns FALSE
T6D94 000:343.830 JLINK_HasError()
T6D94 000:362.989 JLINK_IsHalted()
T6D94 000:363.268 - 0.278ms returns FALSE
T6D94 000:363.291 JLINK_HasError()
T6D94 000:365.046 JLINK_IsHalted()
T6D94 000:365.341 - 0.295ms returns FALSE
T6D94 000:365.363 JLINK_HasError()
T6D94 000:367.338 JLINK_IsHalted()
T6D94 000:369.255   CPU_ReadMem(2 bytes @ 0x20000000)
T6D94 000:369.496 - 2.157ms returns TRUE
T6D94 000:369.518 JLINK_ReadReg(R15 (PC))
T6D94 000:369.535 - 0.017ms returns 0x20000000
T6D94 000:369.551 JLINK_ClrBPEx(BPHandle = 0x00000003)
T6D94 000:369.567 - 0.015ms returns 0x00
T6D94 000:369.583 JLINK_ReadReg(R0)
T6D94 000:369.598 - 0.015ms returns 0x00000000
T6D94 000:370.119 JLINK_HasError()
T6D94 000:370.141 JLINK_WriteReg(R0, 0x08000800)
T6D94 000:370.157 - 0.016ms returns 0
T6D94 000:370.173 JLINK_WriteReg(R1, 0x00000800)
T6D94 000:370.188 - 0.015ms returns 0
T6D94 000:370.204 JLINK_WriteReg(R2, 0x000000FF)
T6D94 000:370.219 - 0.015ms returns 0
T6D94 000:370.235 JLINK_WriteReg(R3, 0x00000000)
T6D94 000:370.250 - 0.015ms returns 0
T6D94 000:370.265 JLINK_WriteReg(R4, 0x00000000)
T6D94 000:370.280 - 0.014ms returns 0
T6D94 000:370.296 JLINK_WriteReg(R5, 0x00000000)
T6D94 000:370.311 - 0.015ms returns 0
T6D94 000:370.327 JLINK_WriteReg(R6, 0x00000000)
T6D94 000:370.342 - 0.015ms returns 0
T6D94 000:370.357 JLINK_WriteReg(R7, 0x00000000)
T6D94 000:370.372 - 0.015ms returns 0
T6D94 000:370.388 JLINK_WriteReg(R8, 0x00000000)
T6D94 000:370.403 - 0.015ms returns 0
T6D94 000:370.419 JLINK_WriteReg(R9, 0x200001C0)
T6D94 000:370.434 - 0.015ms returns 0
T6D94 000:370.449 JLINK_WriteReg(R10, 0x00000000)
T6D94 000:370.465 - 0.015ms returns 0
T6D94 000:370.480 JLINK_WriteReg(R11, 0x00000000)
T6D94 000:370.495 - 0.015ms returns 0
T6D94 000:370.511 JLINK_WriteReg(R12, 0x00000000)
T6D94 000:370.526 - 0.015ms returns 0
T6D94 000:370.542 JLINK_WriteReg(R13 (SP), 0x20008000)
T6D94 000:370.557 - 0.015ms returns 0
T6D94 000:370.573 JLINK_WriteReg(R14, 0x20000001)
T6D94 000:370.588 - 0.015ms returns 0
T6D94 000:370.604 JLINK_WriteReg(R15 (PC), 0x2000008C)
T6D94 000:370.619 - 0.015ms returns 0
T6D94 000:370.635 JLINK_WriteReg(XPSR, 0x01000000)
T6D94 000:370.650 - 0.015ms returns 0
T6D94 000:370.665 JLINK_WriteReg(MSP, 0x20008000)
T6D94 000:370.680 - 0.015ms returns 0
T6D94 000:370.696 JLINK_WriteReg(PSP, 0x20008000)
T6D94 000:370.711 - 0.015ms returns 0
T6D94 000:370.727 JLINK_WriteReg(CFBP, 0x00000000)
T6D94 000:370.742 - 0.015ms returns 0
T6D94 000:370.758 JLINK_SetBPEx(Addr = 0x20000000, Type = 0xFFFFFFF2)
T6D94 000:370.774 - 0.015ms returns 0x00000004
T6D94 000:370.790 JLINK_Go()
T6D94 000:370.811   CPU_ReadMem(4 bytes @ 0xE0001000)
T6D94 000:372.991 - 2.201ms 
T6D94 000:373.014 JLINK_IsHalted()
T6D94 000:374.896   CPU_ReadMem(2 bytes @ 0x20000000)
T6D94 000:375.179 - 2.164ms returns TRUE
T6D94 000:375.205 JLINK_ReadReg(R15 (PC))
T6D94 000:375.223 - 0.017ms returns 0x20000000
T6D94 000:375.239 JLINK_ClrBPEx(BPHandle = 0x00000004)
T6D94 000:375.254 - 0.015ms returns 0x00
T6D94 000:375.271 JLINK_ReadReg(R0)
T6D94 000:375.286 - 0.015ms returns 0x00000001
T6D94 000:375.308 JLINK_HasError()
T6D94 000:375.325 JLINK_WriteReg(R0, 0x08000800)
T6D94 000:375.340 - 0.015ms returns 0
T6D94 000:375.356 JLINK_WriteReg(R1, 0x00000800)
T6D94 000:375.371 - 0.015ms returns 0
T6D94 000:375.387 JLINK_WriteReg(R2, 0x000000FF)
T6D94 000:375.402 - 0.015ms returns 0
T6D94 000:375.418 JLINK_WriteReg(R3, 0x00000000)
T6D94 000:375.433 - 0.014ms returns 0
T6D94 000:375.449 JLINK_WriteReg(R4, 0x00000000)
T6D94 000:375.464 - 0.015ms returns 0
T6D94 000:375.479 JLINK_WriteReg(R5, 0x00000000)
T6D94 000:375.494 - 0.014ms returns 0
T6D94 000:375.510 JLINK_WriteReg(R6, 0x00000000)
T6D94 000:375.525 - 0.015ms returns 0
T6D94 000:375.541 JLINK_WriteReg(R7, 0x00000000)
T6D94 000:375.556 - 0.014ms returns 0
T6D94 000:375.572 JLINK_WriteReg(R8, 0x00000000)
T6D94 000:375.587 - 0.015ms returns 0
T6D94 000:375.602 JLINK_WriteReg(R9, 0x200001C0)
T6D94 000:375.617 - 0.015ms returns 0
T6D94 000:375.653 JLINK_WriteReg(R10, 0x00000000)
T6D94 000:375.668 - 0.015ms returns 0
T6D94 000:375.684 JLINK_WriteReg(R11, 0x00000000)
T6D94 000:375.699 - 0.014ms returns 0
T6D94 000:375.715 JLINK_WriteReg(R12, 0x00000000)
T6D94 000:375.730 - 0.014ms returns 0
T6D94 000:375.746 JLINK_WriteReg(R13 (SP), 0x20008000)
T6D94 000:375.761 - 0.015ms returns 0
T6D94 000:375.777 JLINK_WriteReg(R14, 0x20000001)
T6D94 000:375.792 - 0.015ms returns 0
T6D94 000:375.807 JLINK_WriteReg(R15 (PC), 0x200000B0)
T6D94 000:375.822 - 0.015ms returns 0
T6D94 000:375.838 JLINK_WriteReg(XPSR, 0x01000000)
T6D94 000:375.853 - 0.015ms returns 0
T6D94 000:375.869 JLINK_WriteReg(MSP, 0x20008000)
T6D94 000:375.884 - 0.015ms returns 0
T6D94 000:375.900 JLINK_WriteReg(PSP, 0x20008000)
T6D94 000:375.915 - 0.015ms returns 0
T6D94 000:375.931 JLINK_WriteReg(CFBP, 0x00000000)
T6D94 000:375.946 - 0.014ms returns 0
T6D94 000:375.962 JLINK_SetBPEx(Addr = 0x20000000, Type = 0xFFFFFFF2)
T6D94 000:375.978 - 0.015ms returns 0x00000005
T6D94 000:375.994 JLINK_Go()
T6D94 000:376.015   CPU_ReadMem(4 bytes @ 0xE0001000)
T6D94 000:378.005 - 2.011ms 
T6D94 000:378.030 JLINK_IsHalted()
T6D94 000:378.268 - 0.237ms returns FALSE
T6D94 000:378.292 JLINK_HasError()
T6D94 000:382.615 JLINK_IsHalted()
T6D94 000:382.848 - 0.232ms returns FALSE
T6D94 000:382.869 JLINK_HasError()
T6D94 000:384.619 JLINK_IsHalted()
T6D94 000:384.847 - 0.227ms returns FALSE
T6D94 000:384.867 JLINK_HasError()
T6D94 000:387.081 JLINK_IsHalted()
T6D94 000:387.415 - 0.335ms returns FALSE
T6D94 000:387.438 JLINK_HasError()
T6D94 000:389.218 JLINK_IsHalted()
T6D94 000:389.460 - 0.242ms returns FALSE
T6D94 000:389.483 JLINK_HasError()
T6D94 000:394.110 JLINK_IsHalted()
T6D94 000:394.442 - 0.333ms returns FALSE
T6D94 000:394.466 JLINK_HasError()
T6D94 000:396.093 JLINK_IsHalted()
T6D94 000:396.415 - 0.323ms returns FALSE
T6D94 000:396.436 JLINK_HasError()
T6D94 000:398.089 JLINK_IsHalted()
T6D94 000:398.417 - 0.328ms returns FALSE
T6D94 000:398.439 JLINK_HasError()
T6D94 000:400.059 JLINK_IsHalted()
T6D94 000:401.979   CPU_ReadMem(2 bytes @ 0x20000000)
T6D94 000:402.268 - 2.208ms returns TRUE
T6D94 000:402.290 JLINK_ReadReg(R15 (PC))
T6D94 000:402.307 - 0.016ms returns 0x20000000
T6D94 000:402.323 JLINK_ClrBPEx(BPHandle = 0x00000005)
T6D94 000:402.339 - 0.015ms returns 0x00
T6D94 000:402.355 JLINK_ReadReg(R0)
T6D94 000:402.370 - 0.015ms returns 0x00000000
T6D94 000:402.899 JLINK_HasError()
T6D94 000:402.921 JLINK_WriteReg(R0, 0x08001000)
T6D94 000:402.937 - 0.016ms returns 0
T6D94 000:402.953 JLINK_WriteReg(R1, 0x00000800)
T6D94 000:402.968 - 0.015ms returns 0
T6D94 000:402.984 JLINK_WriteReg(R2, 0x000000FF)
T6D94 000:402.999 - 0.015ms returns 0
T6D94 000:403.015 JLINK_WriteReg(R3, 0x00000000)
T6D94 000:403.030 - 0.015ms returns 0
T6D94 000:403.046 JLINK_WriteReg(R4, 0x00000000)
T6D94 000:403.066 - 0.020ms returns 0
T6D94 000:403.082 JLINK_WriteReg(R5, 0x00000000)
T6D94 000:403.097 - 0.014ms returns 0
T6D94 000:403.113 JLINK_WriteReg(R6, 0x00000000)
T6D94 000:403.128 - 0.014ms returns 0
T6D94 000:403.147 JLINK_WriteReg(R7, 0x00000000)
T6D94 000:403.164 - 0.017ms returns 0
T6D94 000:403.180 JLINK_WriteReg(R8, 0x00000000)
T6D94 000:403.195 - 0.015ms returns 0
T6D94 000:403.211 JLINK_WriteReg(R9, 0x200001C0)
T6D94 000:403.226 - 0.014ms returns 0
T6D94 000:403.242 JLINK_WriteReg(R10, 0x00000000)
T6D94 000:403.257 - 0.015ms returns 0
T6D94 000:403.272 JLINK_WriteReg(R11, 0x00000000)
T6D94 000:403.287 - 0.015ms returns 0
T6D94 000:403.303 JLINK_WriteReg(R12, 0x00000000)
T6D94 000:403.318 - 0.015ms returns 0
T6D94 000:403.334 JLINK_WriteReg(R13 (SP), 0x20008000)
T6D94 000:403.349 - 0.015ms returns 0
T6D94 000:403.365 JLINK_WriteReg(R14, 0x20000001)
T6D94 000:403.380 - 0.015ms returns 0
T6D94 000:403.396 JLINK_WriteReg(R15 (PC), 0x2000008C)
T6D94 000:403.411 - 0.015ms returns 0
T6D94 000:403.427 JLINK_WriteReg(XPSR, 0x01000000)
T6D94 000:403.442 - 0.015ms returns 0
T6D94 000:403.458 JLINK_WriteReg(MSP, 0x20008000)
T6D94 000:403.472 - 0.015ms returns 0
T6D94 000:403.488 JLINK_WriteReg(PSP, 0x20008000)
T6D94 000:403.503 - 0.015ms returns 0
T6D94 000:403.519 JLINK_WriteReg(CFBP, 0x00000000)
T6D94 000:403.534 - 0.015ms returns 0
T6D94 000:403.550 JLINK_SetBPEx(Addr = 0x20000000, Type = 0xFFFFFFF2)
T6D94 000:403.566 - 0.015ms returns 0x00000006
T6D94 000:403.582 JLINK_Go()
T6D94 000:403.603   CPU_ReadMem(4 bytes @ 0xE0001000)
T6D94 000:405.631 - 2.049ms 
T6D94 000:405.655 JLINK_IsHalted()
T6D94 000:407.541   CPU_ReadMem(2 bytes @ 0x20000000)
T6D94 000:407.816 - 2.160ms returns TRUE
T6D94 000:407.841 JLINK_ReadReg(R15 (PC))
T6D94 000:407.859 - 0.017ms returns 0x20000000
T6D94 000:407.875 JLINK_ClrBPEx(BPHandle = 0x00000006)
T6D94 000:407.890 - 0.015ms returns 0x00
T6D94 000:407.906 JLINK_ReadReg(R0)
T6D94 000:407.922 - 0.015ms returns 0x00000001
T6D94 000:407.938 JLINK_HasError()
T6D94 000:407.955 JLINK_WriteReg(R0, 0x08001000)
T6D94 000:407.970 - 0.015ms returns 0
T6D94 000:407.986 JLINK_WriteReg(R1, 0x00000800)
T6D94 000:408.001 - 0.015ms returns 0
T6D94 000:408.017 JLINK_WriteReg(R2, 0x000000FF)
T6D94 000:408.032 - 0.015ms returns 0
T6D94 000:408.048 JLINK_WriteReg(R3, 0x00000000)
T6D94 000:408.063 - 0.015ms returns 0
T6D94 000:408.078 JLINK_WriteReg(R4, 0x00000000)
T6D94 000:408.093 - 0.015ms returns 0
T6D94 000:408.109 JLINK_WriteReg(R5, 0x00000000)
T6D94 000:408.124 - 0.015ms returns 0
T6D94 000:408.140 JLINK_WriteReg(R6, 0x00000000)
T6D94 000:408.155 - 0.014ms returns 0
T6D94 000:408.171 JLINK_WriteReg(R7, 0x00000000)
T6D94 000:408.185 - 0.015ms returns 0
T6D94 000:408.201 JLINK_WriteReg(R8, 0x00000000)
T6D94 000:408.216 - 0.015ms returns 0
T6D94 000:408.232 JLINK_WriteReg(R9, 0x200001C0)
T6D94 000:408.247 - 0.014ms returns 0
T6D94 000:408.263 JLINK_WriteReg(R10, 0x00000000)
T6D94 000:408.278 - 0.015ms returns 0
T6D94 000:408.294 JLINK_WriteReg(R11, 0x00000000)
T6D94 000:408.309 - 0.015ms returns 0
T6D94 000:408.324 JLINK_WriteReg(R12, 0x00000000)
T6D94 000:408.339 - 0.015ms returns 0
T6D94 000:408.355 JLINK_WriteReg(R13 (SP), 0x20008000)
T6D94 000:408.370 - 0.015ms returns 0
T6D94 000:408.386 JLINK_WriteReg(R14, 0x20000001)
T6D94 000:408.401 - 0.015ms returns 0
T6D94 000:408.417 JLINK_WriteReg(R15 (PC), 0x200000B0)
T6D94 000:408.432 - 0.015ms returns 0
T6D94 000:408.448 JLINK_WriteReg(XPSR, 0x01000000)
T6D94 000:408.463 - 0.015ms returns 0
T6D94 000:408.479 JLINK_WriteReg(MSP, 0x20008000)
T6D94 000:408.494 - 0.015ms returns 0
T6D94 000:408.509 JLINK_WriteReg(PSP, 0x20008000)
T6D94 000:408.524 - 0.015ms returns 0
T6D94 000:408.540 JLINK_WriteReg(CFBP, 0x00000000)
T6D94 000:408.555 - 0.014ms returns 0
T6D94 000:408.571 JLINK_SetBPEx(Addr = 0x20000000, Type = 0xFFFFFFF2)
T6D94 000:408.587 - 0.015ms returns 0x00000007
T6D94 000:408.603 JLINK_Go()
T6D94 000:408.624   CPU_ReadMem(4 bytes @ 0xE0001000)
T6D94 000:410.737 - 2.133ms 
T6D94 000:410.759 JLINK_IsHalted()
T6D94 000:410.985 - 0.225ms returns FALSE
T6D94 000:411.007 JLINK_HasError()
T6D94 000:416.879 JLINK_IsHalted()
T6D94 000:417.165 - 0.287ms returns FALSE
T6D94 000:417.186 JLINK_HasError()
T6D94 000:418.872 JLINK_IsHalted()
T6D94 000:419.165 - 0.293ms returns FALSE
T6D94 000:419.186 JLINK_HasError()
T6D94 000:420.868 JLINK_IsHalted()
T6D94 000:421.204 - 0.337ms returns FALSE
T6D94 000:421.227 JLINK_HasError()
T6D94 000:427.325 JLINK_IsHalted()
T6D94 000:427.662 - 0.338ms returns FALSE
T6D94 000:427.686 JLINK_HasError()
T6D94 000:429.599 JLINK_IsHalted()
T6D94 000:429.919 - 0.320ms returns FALSE
T6D94 000:429.942 JLINK_HasError()
T6D94 000:431.606 JLINK_IsHalted()
T6D94 000:431.880 - 0.274ms returns FALSE
T6D94 000:431.900 JLINK_HasError()
T6D94 000:433.580 JLINK_IsHalted()
T6D94 000:435.605   CPU_ReadMem(2 bytes @ 0x20000000)
T6D94 000:435.879 - 2.300ms returns TRUE
T6D94 000:435.904 JLINK_ReadReg(R15 (PC))
T6D94 000:435.921 - 0.017ms returns 0x20000000
T6D94 000:435.938 JLINK_ClrBPEx(BPHandle = 0x00000007)
T6D94 000:435.953 - 0.015ms returns 0x00
T6D94 000:435.970 JLINK_ReadReg(R0)
T6D94 000:435.985 - 0.015ms returns 0x00000000
T6D94 000:436.567 JLINK_HasError()
T6D94 000:436.598 JLINK_WriteReg(R0, 0x08001800)
T6D94 000:436.619 - 0.021ms returns 0
T6D94 000:436.640 JLINK_WriteReg(R1, 0x00000800)
T6D94 000:436.655 - 0.015ms returns 0
T6D94 000:436.671 JLINK_WriteReg(R2, 0x000000FF)
T6D94 000:436.686 - 0.015ms returns 0
T6D94 000:436.702 JLINK_WriteReg(R3, 0x00000000)
T6D94 000:436.717 - 0.015ms returns 0
T6D94 000:436.733 JLINK_WriteReg(R4, 0x00000000)
T6D94 000:436.748 - 0.014ms returns 0
T6D94 000:436.764 JLINK_WriteReg(R5, 0x00000000)
T6D94 000:436.778 - 0.015ms returns 0
T6D94 000:436.794 JLINK_WriteReg(R6, 0x00000000)
T6D94 000:436.809 - 0.015ms returns 0
T6D94 000:436.825 JLINK_WriteReg(R7, 0x00000000)
T6D94 000:436.840 - 0.014ms returns 0
T6D94 000:436.856 JLINK_WriteReg(R8, 0x00000000)
T6D94 000:436.871 - 0.015ms returns 0
T6D94 000:436.886 JLINK_WriteReg(R9, 0x200001C0)
T6D94 000:436.901 - 0.015ms returns 0
T6D94 000:436.917 JLINK_WriteReg(R10, 0x00000000)
T6D94 000:436.932 - 0.015ms returns 0
T6D94 000:436.948 JLINK_WriteReg(R11, 0x00000000)
T6D94 000:436.963 - 0.015ms returns 0
T6D94 000:436.978 JLINK_WriteReg(R12, 0x00000000)
T6D94 000:436.993 - 0.014ms returns 0
T6D94 000:437.009 JLINK_WriteReg(R13 (SP), 0x20008000)
T6D94 000:437.025 - 0.015ms returns 0
T6D94 000:437.040 JLINK_WriteReg(R14, 0x20000001)
T6D94 000:437.055 - 0.015ms returns 0
T6D94 000:437.071 JLINK_WriteReg(R15 (PC), 0x2000008C)
T6D94 000:437.086 - 0.015ms returns 0
T6D94 000:437.102 JLINK_WriteReg(XPSR, 0x01000000)
T6D94 000:437.117 - 0.015ms returns 0
T6D94 000:437.133 JLINK_WriteReg(MSP, 0x20008000)
T6D94 000:437.148 - 0.015ms returns 0
T6D94 000:437.164 JLINK_WriteReg(PSP, 0x20008000)
T6D94 000:437.179 - 0.015ms returns 0
T6D94 000:437.195 JLINK_WriteReg(CFBP, 0x00000000)
T6D94 000:437.210 - 0.015ms returns 0
T6D94 000:437.226 JLINK_SetBPEx(Addr = 0x20000000, Type = 0xFFFFFFF2)
T6D94 000:437.242 - 0.016ms returns 0x00000008
T6D94 000:437.258 JLINK_Go()
T6D94 000:437.280   CPU_ReadMem(4 bytes @ 0xE0001000)
T6D94 000:439.488 - 2.229ms 
T6D94 000:439.516 JLINK_IsHalted()
T6D94 000:441.467   CPU_ReadMem(2 bytes @ 0x20000000)
T6D94 000:441.779 - 2.263ms returns TRUE
T6D94 000:441.807 JLINK_ReadReg(R15 (PC))
T6D94 000:441.825 - 0.017ms returns 0x20000000
T6D94 000:441.844 JLINK_ClrBPEx(BPHandle = 0x00000008)
T6D94 000:441.859 - 0.015ms returns 0x00
T6D94 000:441.878 JLINK_ReadReg(R0)
T6D94 000:441.893 - 0.015ms returns 0x00000001
T6D94 000:441.912 JLINK_HasError()
T6D94 000:441.931 JLINK_WriteReg(R0, 0x08001800)
T6D94 000:441.947 - 0.015ms returns 0
T6D94 000:441.965 JLINK_WriteReg(R1, 0x00000800)
T6D94 000:441.981 - 0.015ms returns 0
T6D94 000:441.999 JLINK_WriteReg(R2, 0x000000FF)
T6D94 000:442.014 - 0.015ms returns 0
T6D94 000:442.033 JLINK_WriteReg(R3, 0x00000000)
T6D94 000:442.050 - 0.017ms returns 0
T6D94 000:442.069 JLINK_WriteReg(R4, 0x00000000)
T6D94 000:442.084 - 0.015ms returns 0
T6D94 000:442.102 JLINK_WriteReg(R5, 0x00000000)
T6D94 000:442.118 - 0.015ms returns 0
T6D94 000:442.136 JLINK_WriteReg(R6, 0x00000000)
T6D94 000:442.154 - 0.018ms returns 0
T6D94 000:442.175 JLINK_WriteReg(R7, 0x00000000)
T6D94 000:442.191 - 0.015ms returns 0
T6D94 000:442.209 JLINK_WriteReg(R8, 0x00000000)
T6D94 000:442.224 - 0.015ms returns 0
T6D94 000:442.242 JLINK_WriteReg(R9, 0x200001C0)
T6D94 000:442.257 - 0.015ms returns 0
T6D94 000:442.275 JLINK_WriteReg(R10, 0x00000000)
T6D94 000:442.291 - 0.015ms returns 0
T6D94 000:442.309 JLINK_WriteReg(R11, 0x00000000)
T6D94 000:442.324 - 0.015ms returns 0
T6D94 000:442.342 JLINK_WriteReg(R12, 0x00000000)
T6D94 000:442.358 - 0.015ms returns 0
T6D94 000:442.376 JLINK_WriteReg(R13 (SP), 0x20008000)
T6D94 000:442.391 - 0.015ms returns 0
T6D94 000:442.409 JLINK_WriteReg(R14, 0x20000001)
T6D94 000:442.425 - 0.015ms returns 0
T6D94 000:442.443 JLINK_WriteReg(R15 (PC), 0x200000B0)
T6D94 000:442.458 - 0.015ms returns 0
T6D94 000:442.476 JLINK_WriteReg(XPSR, 0x01000000)
T6D94 000:442.492 - 0.015ms returns 0
T6D94 000:442.510 JLINK_WriteReg(MSP, 0x20008000)
T6D94 000:442.525 - 0.015ms returns 0
T6D94 000:442.543 JLINK_WriteReg(PSP, 0x20008000)
T6D94 000:442.558 - 0.015ms returns 0
T6D94 000:442.577 JLINK_WriteReg(CFBP, 0x00000000)
T6D94 000:442.594 - 0.017ms returns 0
T6D94 000:442.613 JLINK_SetBPEx(Addr = 0x20000000, Type = 0xFFFFFFF2)
T6D94 000:442.629 - 0.016ms returns 0x00000009
T6D94 000:442.648 JLINK_Go()
T6D94 000:442.669   CPU_ReadMem(4 bytes @ 0xE0001000)
T6D94 000:444.866 - 2.218ms 
T6D94 000:444.892 JLINK_IsHalted()
T6D94 000:445.120 - 0.227ms returns FALSE
T6D94 000:445.143 JLINK_HasError()
T6D94 000:452.276 JLINK_IsHalted()
T6D94 000:452.568 - 0.291ms returns FALSE
T6D94 000:452.594 JLINK_HasError()
T6D94 000:457.183 JLINK_IsHalted()
T6D94 000:457.475 - 0.291ms returns FALSE
T6D94 000:457.501 JLINK_HasError()
T6D94 000:459.185 JLINK_IsHalted()
T6D94 000:459.469 - 0.284ms returns FALSE
T6D94 000:459.490 JLINK_HasError()
T6D94 000:461.186 JLINK_IsHalted()
T6D94 000:461.485 - 0.299ms returns FALSE
T6D94 000:461.506 JLINK_HasError()
T6D94 000:463.181 JLINK_IsHalted()
T6D94 000:463.476 - 0.296ms returns FALSE
T6D94 000:463.497 JLINK_HasError()
T6D94 000:465.197 JLINK_IsHalted()
T6D94 000:465.425 - 0.227ms returns FALSE
T6D94 000:465.445 JLINK_HasError()
T6D94 000:467.471 JLINK_IsHalted()
T6D94 000:469.366   CPU_ReadMem(2 bytes @ 0x20000000)
T6D94 000:469.654 - 2.184ms returns TRUE
T6D94 000:469.676 JLINK_ReadReg(R15 (PC))
T6D94 000:469.693 - 0.017ms returns 0x20000000
T6D94 000:469.710 JLINK_ClrBPEx(BPHandle = 0x00000009)
T6D94 000:469.725 - 0.015ms returns 0x00
T6D94 000:469.741 JLINK_ReadReg(R0)
T6D94 000:469.756 - 0.015ms returns 0x00000000
T6D94 000:470.334 JLINK_HasError()
T6D94 000:470.356 JLINK_WriteReg(R0, 0x08002000)
T6D94 000:470.373 - 0.016ms returns 0
T6D94 000:470.389 JLINK_WriteReg(R1, 0x00000800)
T6D94 000:470.404 - 0.015ms returns 0
T6D94 000:470.420 JLINK_WriteReg(R2, 0x000000FF)
T6D94 000:470.435 - 0.014ms returns 0
T6D94 000:470.451 JLINK_WriteReg(R3, 0x00000000)
T6D94 000:470.465 - 0.014ms returns 0
T6D94 000:470.481 JLINK_WriteReg(R4, 0x00000000)
T6D94 000:470.496 - 0.015ms returns 0
T6D94 000:470.512 JLINK_WriteReg(R5, 0x00000000)
T6D94 000:470.527 - 0.015ms returns 0
T6D94 000:470.542 JLINK_WriteReg(R6, 0x00000000)
T6D94 000:470.557 - 0.014ms returns 0
T6D94 000:470.573 JLINK_WriteReg(R7, 0x00000000)
T6D94 000:470.588 - 0.015ms returns 0
T6D94 000:470.604 JLINK_WriteReg(R8, 0x00000000)
T6D94 000:470.619 - 0.015ms returns 0
T6D94 000:470.634 JLINK_WriteReg(R9, 0x200001C0)
T6D94 000:470.649 - 0.015ms returns 0
T6D94 000:470.665 JLINK_WriteReg(R10, 0x00000000)
T6D94 000:470.680 - 0.014ms returns 0
T6D94 000:470.696 JLINK_WriteReg(R11, 0x00000000)
T6D94 000:470.711 - 0.015ms returns 0
T6D94 000:470.726 JLINK_WriteReg(R12, 0x00000000)
T6D94 000:470.741 - 0.014ms returns 0
T6D94 000:470.757 JLINK_WriteReg(R13 (SP), 0x20008000)
T6D94 000:470.772 - 0.015ms returns 0
T6D94 000:470.788 JLINK_WriteReg(R14, 0x20000001)
T6D94 000:470.803 - 0.015ms returns 0
T6D94 000:470.819 JLINK_WriteReg(R15 (PC), 0x2000008C)
T6D94 000:470.837 - 0.018ms returns 0
T6D94 000:470.855 JLINK_WriteReg(XPSR, 0x01000000)
T6D94 000:470.870 - 0.015ms returns 0
T6D94 000:470.886 JLINK_WriteReg(MSP, 0x20008000)
T6D94 000:470.900 - 0.014ms returns 0
T6D94 000:470.916 JLINK_WriteReg(PSP, 0x20008000)
T6D94 000:470.931 - 0.014ms returns 0
T6D94 000:470.947 JLINK_WriteReg(CFBP, 0x00000000)
T6D94 000:470.962 - 0.014ms returns 0
T6D94 000:470.978 JLINK_SetBPEx(Addr = 0x20000000, Type = 0xFFFFFFF2)
T6D94 000:470.994 - 0.016ms returns 0x0000000A
T6D94 000:471.010 JLINK_Go()
T6D94 000:471.032   CPU_ReadMem(4 bytes @ 0xE0001000)
T6D94 000:473.324 - 2.313ms 
T6D94 000:473.363 JLINK_IsHalted()
T6D94 000:475.337   CPU_ReadMem(2 bytes @ 0x20000000)
T6D94 000:475.590 - 2.226ms returns TRUE
T6D94 000:475.617 JLINK_ReadReg(R15 (PC))
T6D94 000:475.635 - 0.018ms returns 0x20000000
T6D94 000:475.654 JLINK_ClrBPEx(BPHandle = 0x0000000A)
T6D94 000:475.670 - 0.015ms returns 0x00
T6D94 000:475.688 JLINK_ReadReg(R0)
T6D94 000:475.704 - 0.015ms returns 0x00000001
T6D94 000:475.723 JLINK_HasError()
T6D94 000:475.742 JLINK_WriteReg(R0, 0x08002000)
T6D94 000:475.758 - 0.015ms returns 0
T6D94 000:475.776 JLINK_WriteReg(R1, 0x00000800)
T6D94 000:475.791 - 0.015ms returns 0
T6D94 000:475.809 JLINK_WriteReg(R2, 0x000000FF)
T6D94 000:475.825 - 0.015ms returns 0
T6D94 000:475.843 JLINK_WriteReg(R3, 0x00000000)
T6D94 000:475.858 - 0.015ms returns 0
T6D94 000:475.876 JLINK_WriteReg(R4, 0x00000000)
T6D94 000:475.891 - 0.015ms returns 0
T6D94 000:475.910 JLINK_WriteReg(R5, 0x00000000)
T6D94 000:475.927 - 0.017ms returns 0
T6D94 000:475.946 JLINK_WriteReg(R6, 0x00000000)
T6D94 000:475.961 - 0.015ms returns 0
T6D94 000:475.979 JLINK_WriteReg(R7, 0x00000000)
T6D94 000:475.995 - 0.015ms returns 0
T6D94 000:476.013 JLINK_WriteReg(R8, 0x00000000)
T6D94 000:476.028 - 0.015ms returns 0
T6D94 000:476.046 JLINK_WriteReg(R9, 0x200001C0)
T6D94 000:476.061 - 0.015ms returns 0
T6D94 000:476.079 JLINK_WriteReg(R10, 0x00000000)
T6D94 000:476.095 - 0.015ms returns 0
T6D94 000:476.113 JLINK_WriteReg(R11, 0x00000000)
T6D94 000:476.128 - 0.015ms returns 0
T6D94 000:476.146 JLINK_WriteReg(R12, 0x00000000)
T6D94 000:476.162 - 0.015ms returns 0
T6D94 000:476.180 JLINK_WriteReg(R13 (SP), 0x20008000)
T6D94 000:476.195 - 0.015ms returns 0
T6D94 000:476.213 JLINK_WriteReg(R14, 0x20000001)
T6D94 000:476.229 - 0.015ms returns 0
T6D94 000:476.247 JLINK_WriteReg(R15 (PC), 0x200000B0)
T6D94 000:476.262 - 0.015ms returns 0
T6D94 000:476.280 JLINK_WriteReg(XPSR, 0x01000000)
T6D94 000:476.296 - 0.015ms returns 0
T6D94 000:476.314 JLINK_WriteReg(MSP, 0x20008000)
T6D94 000:476.329 - 0.015ms returns 0
T6D94 000:476.347 JLINK_WriteReg(PSP, 0x20008000)
T6D94 000:476.362 - 0.015ms returns 0
T6D94 000:476.380 JLINK_WriteReg(CFBP, 0x00000000)
T6D94 000:476.396 - 0.015ms returns 0
T6D94 000:476.414 JLINK_SetBPEx(Addr = 0x20000000, Type = 0xFFFFFFF2)
T6D94 000:476.430 - 0.016ms returns 0x0000000B
T6D94 000:476.449 JLINK_Go()
T6D94 000:476.472   CPU_ReadMem(4 bytes @ 0xE0001000)
T6D94 000:478.539 - 2.089ms 
T6D94 000:478.564 JLINK_IsHalted()
T6D94 000:478.787 - 0.221ms returns FALSE
T6D94 000:478.810 JLINK_HasError()
T6D94 000:490.536 JLINK_IsHalted()
T6D94 000:490.828 - 0.291ms returns FALSE
T6D94 000:490.854 JLINK_HasError()
T6D94 000:492.581 JLINK_IsHalted()
T6D94 000:492.925 - 0.345ms returns FALSE
T6D94 000:492.947 JLINK_HasError()
T6D94 000:494.579 JLINK_IsHalted()
T6D94 000:494.921 - 0.343ms returns FALSE
T6D94 000:494.942 JLINK_HasError()
T6D94 000:496.599 JLINK_IsHalted()
T6D94 000:496.889 - 0.290ms returns FALSE
T6D94 000:496.910 JLINK_HasError()
T6D94 000:498.943 JLINK_IsHalted()
T6D94 000:499.270 - 0.328ms returns FALSE
T6D94 000:499.293 JLINK_HasError()
T6D94 000:504.965 JLINK_IsHalted()
T6D94 000:506.868   CPU_ReadMem(2 bytes @ 0x20000000)
T6D94 000:507.216 - 2.251ms returns TRUE
T6D94 000:507.255 JLINK_ReadReg(R15 (PC))
T6D94 000:507.279 - 0.023ms returns 0x20000000
T6D94 000:507.296 JLINK_ClrBPEx(BPHandle = 0x0000000B)
T6D94 000:507.315 - 0.018ms returns 0x00
T6D94 000:507.334 JLINK_ReadReg(R0)
T6D94 000:507.349 - 0.015ms returns 0x00000000
T6D94 000:507.960 JLINK_HasError()
T6D94 000:507.985 JLINK_WriteReg(R0, 0x08002800)
T6D94 000:508.002 - 0.017ms returns 0
T6D94 000:508.018 JLINK_WriteReg(R1, 0x00000800)
T6D94 000:508.033 - 0.015ms returns 0
T6D94 000:508.049 JLINK_WriteReg(R2, 0x000000FF)
T6D94 000:508.064 - 0.015ms returns 0
T6D94 000:508.080 JLINK_WriteReg(R3, 0x00000000)
T6D94 000:508.095 - 0.015ms returns 0
T6D94 000:508.111 JLINK_WriteReg(R4, 0x00000000)
T6D94 000:508.126 - 0.014ms returns 0
T6D94 000:508.141 JLINK_WriteReg(R5, 0x00000000)
T6D94 000:508.156 - 0.014ms returns 0
T6D94 000:508.172 JLINK_WriteReg(R6, 0x00000000)
T6D94 000:508.187 - 0.015ms returns 0
T6D94 000:508.203 JLINK_WriteReg(R7, 0x00000000)
T6D94 000:508.218 - 0.015ms returns 0
T6D94 000:508.234 JLINK_WriteReg(R8, 0x00000000)
T6D94 000:508.249 - 0.015ms returns 0
T6D94 000:508.264 JLINK_WriteReg(R9, 0x200001C0)
T6D94 000:508.279 - 0.014ms returns 0
T6D94 000:508.295 JLINK_WriteReg(R10, 0x00000000)
T6D94 000:508.310 - 0.015ms returns 0
T6D94 000:508.326 JLINK_WriteReg(R11, 0x00000000)
T6D94 000:508.341 - 0.015ms returns 0
T6D94 000:508.357 JLINK_WriteReg(R12, 0x00000000)
T6D94 000:508.373 - 0.015ms returns 0
T6D94 000:508.389 JLINK_WriteReg(R13 (SP), 0x20008000)
T6D94 000:508.404 - 0.015ms returns 0
T6D94 000:508.420 JLINK_WriteReg(R14, 0x20000001)
T6D94 000:508.435 - 0.015ms returns 0
T6D94 000:508.451 JLINK_WriteReg(R15 (PC), 0x2000008C)
T6D94 000:508.466 - 0.015ms returns 0
T6D94 000:508.482 JLINK_WriteReg(XPSR, 0x01000000)
T6D94 000:508.497 - 0.014ms returns 0
T6D94 000:508.513 JLINK_WriteReg(MSP, 0x20008000)
T6D94 000:508.528 - 0.015ms returns 0
T6D94 000:508.544 JLINK_WriteReg(PSP, 0x20008000)
T6D94 000:508.559 - 0.015ms returns 0
T6D94 000:508.574 JLINK_WriteReg(CFBP, 0x00000000)
T6D94 000:508.589 - 0.015ms returns 0
T6D94 000:508.606 JLINK_SetBPEx(Addr = 0x20000000, Type = 0xFFFFFFF2)
T6D94 000:508.621 - 0.016ms returns 0x0000000C
T6D94 000:508.637 JLINK_Go()
T6D94 000:508.661   CPU_ReadMem(4 bytes @ 0xE0001000)
T6D94 000:510.735 - 2.096ms 
T6D94 000:510.761 JLINK_IsHalted()
T6D94 000:512.535   CPU_ReadMem(2 bytes @ 0x20000000)
T6D94 000:512.779 - 2.017ms returns TRUE
T6D94 000:512.802 JLINK_ReadReg(R15 (PC))
T6D94 000:512.818 - 0.016ms returns 0x20000000
T6D94 000:512.834 JLINK_ClrBPEx(BPHandle = 0x0000000C)
T6D94 000:512.850 - 0.015ms returns 0x00
T6D94 000:512.866 JLINK_ReadReg(R0)
T6D94 000:512.881 - 0.015ms returns 0x00000001
T6D94 000:512.897 JLINK_HasError()
T6D94 000:512.913 JLINK_WriteReg(R0, 0x08002800)
T6D94 000:512.929 - 0.015ms returns 0
T6D94 000:512.949 JLINK_WriteReg(R1, 0x00000800)
T6D94 000:512.964 - 0.015ms returns 0
T6D94 000:512.980 JLINK_WriteReg(R2, 0x000000FF)
T6D94 000:512.995 - 0.015ms returns 0
T6D94 000:513.011 JLINK_WriteReg(R3, 0x00000000)
T6D94 000:513.026 - 0.015ms returns 0
T6D94 000:513.042 JLINK_WriteReg(R4, 0x00000000)
T6D94 000:513.056 - 0.014ms returns 0
T6D94 000:513.072 JLINK_WriteReg(R5, 0x00000000)
T6D94 000:513.087 - 0.015ms returns 0
T6D94 000:513.103 JLINK_WriteReg(R6, 0x00000000)
T6D94 000:513.118 - 0.015ms returns 0
T6D94 000:513.133 JLINK_WriteReg(R7, 0x00000000)
T6D94 000:513.148 - 0.015ms returns 0
T6D94 000:513.164 JLINK_WriteReg(R8, 0x00000000)
T6D94 000:513.179 - 0.014ms returns 0
T6D94 000:513.195 JLINK_WriteReg(R9, 0x200001C0)
T6D94 000:513.210 - 0.015ms returns 0
T6D94 000:513.225 JLINK_WriteReg(R10, 0x00000000)
T6D94 000:513.240 - 0.015ms returns 0
T6D94 000:513.256 JLINK_WriteReg(R11, 0x00000000)
T6D94 000:513.271 - 0.015ms returns 0
T6D94 000:513.287 JLINK_WriteReg(R12, 0x00000000)
T6D94 000:513.302 - 0.015ms returns 0
T6D94 000:513.318 JLINK_WriteReg(R13 (SP), 0x20008000)
T6D94 000:513.333 - 0.015ms returns 0
T6D94 000:513.349 JLINK_WriteReg(R14, 0x20000001)
T6D94 000:513.364 - 0.015ms returns 0
T6D94 000:513.380 JLINK_WriteReg(R15 (PC), 0x200000B0)
T6D94 000:513.395 - 0.015ms returns 0
T6D94 000:513.411 JLINK_WriteReg(XPSR, 0x01000000)
T6D94 000:513.431 - 0.020ms returns 0
T6D94 000:513.447 JLINK_WriteReg(MSP, 0x20008000)
T6D94 000:513.462 - 0.015ms returns 0
T6D94 000:513.478 JLINK_WriteReg(PSP, 0x20008000)
T6D94 000:513.493 - 0.015ms returns 0
T6D94 000:513.509 JLINK_WriteReg(CFBP, 0x00000000)
T6D94 000:513.523 - 0.015ms returns 0
T6D94 000:513.540 JLINK_SetBPEx(Addr = 0x20000000, Type = 0xFFFFFFF2)
T6D94 000:513.555 - 0.015ms returns 0x0000000D
T6D94 000:513.571 JLINK_Go()
T6D94 000:513.591   CPU_ReadMem(4 bytes @ 0xE0001000)
T6D94 000:515.557 - 1.985ms 
T6D94 000:515.581 JLINK_IsHalted()
T6D94 000:515.912 - 0.330ms returns FALSE
T6D94 000:515.940 JLINK_HasError()
T6D94 000:628.465 JLINK_IsHalted()
T6D94 000:630.425   CPU_ReadMem(2 bytes @ 0x20000000)
T6D94 000:630.715 - 2.249ms returns TRUE
T6D94 000:630.745 JLINK_ReadReg(R15 (PC))
T6D94 000:630.763 - 0.017ms returns 0x20000000
T6D94 000:630.781 JLINK_ClrBPEx(BPHandle = 0x0000000D)
T6D94 000:630.797 - 0.015ms returns 0x00
T6D94 000:630.816 JLINK_ReadReg(R0)
T6D94 000:630.831 - 0.015ms returns 0x00000000
T6D94 000:631.396 JLINK_HasError()
T6D94 000:631.418 JLINK_WriteReg(R0, 0x08003000)
T6D94 000:631.435 - 0.016ms returns 0
T6D94 000:631.451 JLINK_WriteReg(R1, 0x00000800)
T6D94 000:631.466 - 0.015ms returns 0
T6D94 000:631.482 JLINK_WriteReg(R2, 0x000000FF)
T6D94 000:631.496 - 0.014ms returns 0
T6D94 000:631.512 JLINK_WriteReg(R3, 0x00000000)
T6D94 000:631.527 - 0.015ms returns 0
T6D94 000:631.543 JLINK_WriteReg(R4, 0x00000000)
T6D94 000:631.558 - 0.015ms returns 0
T6D94 000:631.574 JLINK_WriteReg(R5, 0x00000000)
T6D94 000:631.589 - 0.015ms returns 0
T6D94 000:631.605 JLINK_WriteReg(R6, 0x00000000)
T6D94 000:631.620 - 0.014ms returns 0
T6D94 000:631.635 JLINK_WriteReg(R7, 0x00000000)
T6D94 000:631.650 - 0.015ms returns 0
T6D94 000:631.666 JLINK_WriteReg(R8, 0x00000000)
